Bus, BasekV, Node1, Magnitude1, Angle1, pu1, Node2, Magnitude2, Angle2, pu2, Node3, Magnitude3, Angle3, pu3
"COLONY_SS", 11, 1,    6301.29,   -0.5,    0.9922, 2,    6301.29, -120.5,    0.9922, 3,    6301.29,  119.5,    0.9922
"3_WAY_GOA_DAIRY_1", 11, 1,       6291,   -0.5,   0.99057, 2,       6291, -120.5,   0.99057, 3,       6291,  119.5,   0.99057
"FORENSIC", 11, 1,    6283.11,   -0.6,   0.98933, 2,    6283.11, -120.6,   0.98933, 3,    6283.11,  119.4,   0.98933
"DADA_VAIDYA", 11, 1,    6275.25,   -0.6,    0.9881, 2,    6275.25, -120.6,    0.9881, 3,    6275.25,  119.4,    0.9881
"3_WAY_DADA_VAIDYA", 11, 1,    6274.66,   -0.6,     0.988, 2,    6274.66, -120.6,     0.988, 3,    6274.66,  119.4,     0.988
"KAYJI_GARDEN", 11, 1,    6264.27,   -0.6,   0.98637, 2,    6264.27, -120.6,   0.98637, 3,    6264.27,  119.4,   0.98637
"FIBERGLASS", 11, 1,     6257.6,   -0.6,   0.98532, 2,     6257.6, -120.6,   0.98532, 3,     6257.6,  119.4,   0.98532
"4_WAY_SAISERVICE", 11, 1,    6255.09,   -0.6,   0.98492, 2,    6255.09, -120.6,   0.98492, 3,    6255.09,  119.4,   0.98492
"AGARWAL_HTC", 11, 1,    6253.71,   -0.6,    0.9847, 2,    6253.71, -120.6,    0.9847, 3,    6253.71,  119.4,    0.9847
"YUMMY_ICECREAM", 11, 1,    6252.37,   -0.6,   0.98449, 2,    6252.37, -120.6,   0.98449, 3,    6252.37,  119.4,   0.98449
"SHIVLAL", 11, 1,    6251.94,   -0.6,   0.98443, 2,    6251.94, -120.6,   0.98443, 3,    6251.94,  119.4,   0.98443
"KELBAI", 11, 1,    6250.92,   -0.6,   0.98426, 2,    6250.92, -120.6,   0.98426, 3,    6250.92,  119.4,   0.98426
"3_WAY_DOCTOR", 11, 1,    6251.61,   -0.5,   0.98437, 2,    6251.61, -120.5,   0.98437, 3,    6251.61,  119.5,   0.98437
"SURYA_MASALA", 11, 1,    6250.39,   -0.5,   0.98418, 2,    6250.39, -120.5,   0.98418, 3,    6250.39,  119.5,   0.98418
"PISGAL", 11, 1,    6248.38,   -0.5,   0.98386, 2,    6248.38, -120.5,   0.98386, 3,    6248.38,  119.5,   0.98386
"3_WAY_GOADAIRY2", 11, 1,     6290.7,   -0.5,   0.99053, 2,     6290.7, -120.5,   0.99053, 3,     6290.7,  119.5,   0.99053
"DAIRY_HTC", 11, 1,    6286.59,   -0.5,   0.98988, 2,    6286.59, -120.5,   0.98988, 3,    6286.59,  119.5,   0.98988
"DAIRY_OLD", 11, 1,    6286.09,   -0.5,    0.9898, 2,    6286.09, -120.5,    0.9898, 3,    6286.09,  119.5,    0.9898
"3_WAY_MICROWAVE", 11, 1,    6274.73,   -0.5,   0.98801, 2,    6274.73, -120.5,   0.98801, 3,    6274.73,  119.5,   0.98801
"MICROWAVE", 11, 1,    6274.63,   -0.5,     0.988, 2,    6274.63, -120.5,     0.988, 3,    6274.63,  119.5,     0.988
"3_WAY_VEREKAR", 11, 1,     6270.8,   -0.5,    0.9874, 2,     6270.8, -120.5,    0.9874, 3,     6270.8,  119.5,    0.9874
"3_WAY_SAHAKARI", 11, 1,     6270.8,   -0.5,    0.9874, 2,     6270.8, -120.5,    0.9874, 3,     6270.8,  119.5,    0.9874
"ECAP_HTC", 11, 1,    6253.11,   -0.6,   0.98461, 2,    6253.11, -120.6,   0.98461, 3,    6253.11,  119.4,   0.98461
"PRAKASH", 11, 1,    6252.87,   -0.6,   0.98457, 2,    6252.87, -120.6,   0.98457, 3,    6252.87,  119.4,   0.98457
"KAYJI_SKYLINE", 11, 1,    6250.45,   -0.6,   0.98419, 2,    6250.45, -120.6,   0.98419, 3,    6250.45,  119.4,   0.98419
"RUDRA_DEVELOPER", 11, 1,    6249.47,   -0.6,   0.98404, 2,    6249.47, -120.6,   0.98404, 3,    6249.47,  119.4,   0.98404
"3_WAY_KHADPABANDH", 11, 1,    6249.48,   -0.6,   0.98404, 2,    6249.48, -120.6,   0.98404, 3,    6249.48,  119.4,   0.98404
"ASSOCIATE", 11, 1,    6248.67,   -0.6,   0.98391, 2,    6248.67, -120.6,   0.98391, 3,    6248.67,  119.4,   0.98391
"KV_SCHOOL", 11, 1,    6246.83,   -0.6,   0.98362, 2,    6246.83, -120.6,   0.98362, 3,    6246.83,  119.4,   0.98362
"KORDE", 11, 1,    6243.61,   -0.6,   0.98311, 2,    6243.61, -120.6,   0.98311, 3,    6243.61,  119.4,   0.98311
"KAPAT_FACTORY", 11, 1,    6240.61,   -0.6,   0.98264, 2,    6240.61, -120.6,   0.98264, 3,    6240.61,  119.4,   0.98264
"2_WAY_CONEMI", 11, 1,    6240.64,   -0.6,   0.98265, 2,    6240.64, -120.6,   0.98265, 3,    6240.64,  119.4,   0.98265
"3_WAY_COPPERWADA_2", 11, 1,    6269.19,   -0.6,   0.98714, 2,    6269.19, -120.6,   0.98714, 3,    6269.19,  119.4,   0.98714
"3_WAY_COPPERWADA_1", 11, 1,    6267.22,   -0.6,   0.98683, 2,    6267.22, -120.6,   0.98683, 3,    6267.22,  119.4,   0.98683
"DOCTOR_BAKALE", 11, 1,    6258.03,   -0.6,   0.98538, 2,    6258.03, -120.6,   0.98538, 3,    6258.03,  119.4,   0.98538
"4_WAY_VEREKAR", 11, 1,    6267.62,   -0.5,   0.98689, 2,    6267.62, -120.5,   0.98689, 3,    6267.62,  119.5,   0.98689
"FORENSICBUS1", 0.415, 1,    231.141,  -32.3,    0.9647, 2,    231.141, -152.3,    0.9647, 3,    231.141,   87.7,    0.9647
"DADA_VAIDYABUS2", 0.415, 1,    229.554,  -32.6,   0.95807, 2,    229.554, -152.6,   0.95807, 3,    229.554,   87.4,   0.95807
"KAYJI_GARDENBUS3", 0.415, 1,    231.942,  -31.9,   0.96804, 2,    231.942, -151.9,   0.96804, 3,    231.942,   88.1,   0.96804
"FIBERGLASSBUS4", 0.415, 1,    230.535,  -32.1,   0.96216, 2,    230.535, -152.1,   0.96216, 3,    230.535,   87.9,   0.96216
"AGARWAL_HTCBUS5", 0.415, 1,    230.538,  -32.5,   0.96218, 2,    230.538, -152.5,   0.96218, 3,    230.538,   87.5,   0.96218
"YUMMY_ICECREAMBUS6", 0.415, 1,    229.502,  -32.4,   0.95785, 2,    229.502, -152.4,   0.95785, 3,    229.502,   87.6,   0.95785
"SHIVLALBUS7", 0.415, 1,    233.704,  -31.2,   0.97539, 2,    233.704, -151.2,   0.97539, 3,    233.704,   88.8,   0.97539
"KELBAIBUS8", 0.415, 1,    231.097,  -31.9,   0.96451, 2,    231.097, -151.9,   0.96451, 3,    231.097,   88.1,   0.96451
"SURYA_MASALABUS9", 0.415, 1,    229.873,  -32.3,    0.9594, 2,    229.873, -152.3,    0.9594, 3,    229.873,   87.7,    0.9594
"DOCTOR_BAKALEBUS10", 0.415, 1,    231.681,  -32.0,   0.96695, 2,    231.681, -152.0,   0.96695, 3,    231.681,   88.0,   0.96695
"ECAP_HTCBUS11", 0.415, 1,    230.564,  -32.5,   0.96229, 2,    230.564, -152.5,   0.96229, 3,    230.564,   87.5,   0.96229
"PRAKASHBUS12", 0.415, 1,    229.522,  -32.4,   0.95794, 2,    229.522, -152.4,   0.95794, 3,    229.522,   87.6,   0.95794
"KAYJI_SKYLINEBUS13", 0.415, 1,    230.215,  -32.6,   0.96083, 2,    230.215, -152.6,   0.96083, 3,    230.215,   87.4,   0.96083
"RUDRA_DEVELOPERBUS14", 0.415, 1,    229.807,  -32.5,   0.95913, 2,    229.807, -152.5,   0.95913, 3,    229.807,   87.5,   0.95913
"ASSOCIATEBUS15", 0.415, 1,    230.877,  -32.3,   0.96359, 2,    230.877, -152.3,   0.96359, 3,    230.877,   87.7,   0.96359
"KV_SCHOOLBUS16", 0.415, 1,    229.705,  -32.5,    0.9587, 2,    229.705, -152.5,    0.9587, 3,    229.705,   87.5,    0.9587
"KORDEBUS17", 0.415, 1,    231.628,  -31.7,   0.96673, 2,    231.628, -151.7,   0.96673, 3,    231.628,   88.3,   0.96673
"KAPAT_FACTORYBUS18", 0.415, 1,    229.045,  -32.4,   0.95595, 2,    229.045, -152.4,   0.95595, 3,    229.045,   87.6,   0.95595
"VEREKARBUS19", 0.415, 1,    231.311,  -32.1,    0.9654, 2,    231.311, -152.1,    0.9654, 3,    231.311,   87.9,    0.9654
"MICROWAVEBUS20", 0.415, 1,    231.556,  -32.2,   0.96642, 2,    231.556, -152.2,   0.96642, 3,    231.556,   87.8,   0.96642
"DAIRY_OLDBUS21", 0.415, 1,    231.257,  -32.3,   0.96518, 2,    231.257, -152.3,   0.96518, 3,    231.257,   87.7,   0.96518
"DAIRY_HTCBUS22", 0.415, 1,    231.706,  -32.4,   0.96705, 2,    231.706, -152.4,   0.96705, 3,    231.706,   87.6,   0.96705
"PISGALBUS23", 0.415, 1,    230.542,  -32.2,   0.96219, 2,    230.542, -152.2,   0.96219, 3,    230.542,   87.8,   0.96219
