Element, I1_1, Ang1_1, I1_2, Ang1_2, I1_3, Ang1_3, I1_4, Ang1_4, Iresid1, AngResid1, I2_1, Ang2_1, I2_2, Ang2_2, I2_3, Ang2_3, I2_4, Ang2_4, Iresid2, AngResid2
Vsource.SOURCE,    122.275,   153.76,    122.275,    33.76,    122.275,   -86.24,          0,     0.00, 1.72892E-9,    53.90,    122.275,   -26.24,    122.275,  -146.24,    122.275,    93.76,          0,     0.00, 1.72892E-9,  -126.10
Vsource.COLONYSS,    201.053,   148.09,    201.053,    28.09,    201.053,   -91.91,          0,     0.00, 4.17265E-8,  -144.83,    201.053,   -31.91,    201.053,  -151.91,    201.053,    88.09,          0,     0.00, 4.17265E-8,    35.17
Vsource.CONTROLROOMSS,    124.918,   161.24,    124.918,    41.24,    124.918,   -78.76,          0,     0.00, 2.11423E-8,  -142.45,    124.918,   -18.76,    124.918,  -138.76,    124.918,   101.24,          0,     0.00, 2.11423E-8,    37.55
Line.M01,    85.7707,   -26.26,    85.7707,  -146.26,    85.7707,    93.74,          0,     0.00, 1.54385E-9,  -131.26,    85.7771,   153.73,    85.7771,    33.73,    85.7771,   -86.27,          0,     0.00, 1.54067E-9,    48.67
Line.M02,    36.5047,   -26.20,    36.5047,  -146.20,    36.5047,    93.80,          0,     0.00, 2.97631E-10,   -81.92,    36.5083,   153.79,    36.5083,    33.79,    36.5083,   -86.21,          0,     0.00, 2.98234E-10,    98.86
Line.LU1,    37.2493,   -26.28,    37.2493,  -146.28,    37.2493,    93.72,          0,     0.00, 5.31557E-10,   -92.26,     37.251,   153.72,     37.251,    33.72,     37.251,   -86.28,          0,     0.00, 5.25068E-10,    86.13
Line.LU2,    34.3676,   -26.28,    34.3676,  -146.28,    34.3676,    93.72,          0,     0.00, 5.38803E-10,   -95.18,    34.3705,   153.71,    34.3705,    33.71,    34.3705,   -86.29,          0,     0.00, 5.33127E-10,    85.06
Line.LU3,    34.0532,   -26.31,    34.0532,  -146.31,    34.0532,    93.69,          0,     0.00, 5.34981E-10,   -88.44,    34.0543,   153.69,    34.0543,    33.69,    34.0543,   -86.31,          0,     0.00, 5.3486E-10,    90.97
Line.LU4,    33.7804,   -26.32,    33.7804,  -146.32,    33.7804,    93.68,          0,     0.00, 5.0755E-10,   -98.45,    33.7816,   153.68,    33.7816,    33.68,    33.7816,   -86.32,          0,     0.00, 5.17837E-10,    82.13
Line.LU5,    30.8947,   -26.32,    30.8947,  -146.32,    30.8947,    93.68,          0,     0.00, 5.31746E-10,   -98.66,     30.897,   153.67,     30.897,    33.67,     30.897,   -86.33,          0,     0.00, 5.22481E-10,    81.39
Line.LU6,    27.7669,   -26.32,    27.7669,  -146.32,    27.7669,    93.68,          0,     0.00, 5.34908E-10,   -99.54,    27.7704,   153.67,    27.7704,    33.67,    27.7704,   -86.33,          0,     0.00, 5.41694E-10,    79.70
Line.LU7,    25.1216,   -26.33,    25.1216,  -146.33,    25.1216,    93.67,          0,     0.00, 5.32876E-10,  -101.57,    25.1245,   153.65,    25.1245,    33.65,    25.1245,   -86.35,          0,     0.00, 5.62122E-10,    78.66
Line.LU8,    22.7159,   -26.35,    22.7159,  -146.35,    22.7159,    93.65,          0,     0.00, 5.46119E-10,  -102.60,    22.7188,   153.63,    22.7188,    33.63,    22.7188,   -86.37,          0,     0.00, 5.51055E-10,    77.71
Line.LU9,    18.8554,   -26.32,    18.8554,  -146.32,    18.8554,    93.68,          0,     0.00, 5.51502E-10,  -103.35,    18.8588,   153.66,    18.8588,    33.66,    18.8588,   -86.34,          0,     0.00, 5.55447E-10,    78.29
Line.LU10,    14.9937,   -26.28,    14.9937,  -146.28,    14.9937,    93.72,          0,     0.00, 1.56729E-9,   -74.93,    14.9938,   153.72,    14.9938,    33.72,    14.9938,   -86.28,          0,     0.00, 7.00913E-10,    94.76
Line.LU11,     14.635,   -26.29,     14.635,  -146.29,     14.635,    93.71,          0,     0.00, 8.41951E-10,   142.15,    14.6367,   153.70,    14.6367,    33.70,    14.6367,   -86.30,          0,     0.00, 8.14912E-10,   -37.06
Line.LU12,    11.0143,   -26.22,    11.0143,  -146.22,    11.0143,    93.78,          0,     0.00, 8.36933E-10,   141.88,    11.0159,   153.76,    11.0159,    33.76,    11.0159,   -86.24,          0,     0.00, 8.40456E-10,   -36.06
Line.LU13,    7.14976,   -26.04,    7.14976,  -146.04,    7.14976,    93.96,          0,     0.00, 7.5684E-10,   142.03,    7.14987,   153.96,    7.14987,    33.96,    7.14987,   -86.04,          0,     0.00, 1.04541E-9,   -51.22
Line.LU14,    4.11942,   -26.18,    4.11942,  -146.18,    4.11942,    93.82,          0,     0.00, 3.09228E-11,   -28.07,     4.1202,   153.79,     4.1202,    33.79,     4.1202,   -86.21,          0,     0.00, 4.06738E-11,   116.57
Line.LU15,       2.65,   -26.18,       2.65,  -146.18,       2.65,    93.82,          0,     0.00, 1.23705E-11,   -36.03,    2.65344,   153.67,    2.65344,    33.67,    2.65344,   -86.33,          0,     0.00, 3.74994E-12,    75.96
Line.LU16,    3.03048,   -25.85,    3.03048,  -145.85,    3.03048,    94.15,          0,     0.00, 7.66311E-10,   144.27,    3.03205,   154.09,    3.03205,    34.09,    3.03205,   -85.91,          0,     0.00, 7.68949E-10,   -34.59
Line.LU17,   0.620267,   -24.42,   0.620267,  -144.42,   0.620267,    95.58,          0,     0.00, 7.66823E-10,   147.74,   0.623479,   154.93,   0.623479,    34.93,   0.623479,   -85.07,          0,     0.00, 7.62049E-10,   -33.46
Line.LU18,    3.24328,   153.10,    3.24328,    33.10,    3.24328,   -86.90,          0,     0.00, 7.68217E-10,   147.33,     3.2415,   -26.84,     3.2415,  -146.84,     3.2415,    93.16,          0,     0.00, 7.49451E-10,   -33.27
Line.LU19,    6.14412,   153.23,    6.14412,    33.23,    6.14412,   -86.77,          0,     0.00, 7.94013E-10,   152.73,    6.14324,   -26.75,    6.14324,  -146.75,    6.14324,    93.25,          0,     0.00, 7.28877E-10,   -26.69
Line.LU20,    14.3651,   153.58,    14.3651,    33.58,    14.3651,   -86.42,          0,     0.00, 1.01081E-9,   157.13,    14.3634,   -26.41,    14.3634,  -146.41,    14.3634,    93.59,          0,     0.00, 9.90383E-10,   -22.92
Line.LU21,    15.7279,   153.60,    15.7279,    33.60,    15.7279,   -86.40,          0,     0.00, 1.02072E-9,   160.21,    15.7267,   -26.39,    15.7267,  -146.39,    15.7267,    93.61,          0,     0.00, 1.02043E-9,   -21.76
Line.LU22,    16.8627,   153.66,    16.8627,    33.66,    16.8627,   -86.34,          0,     0.00, 8.23695E-10,   122.01,    16.8627,   -26.34,    16.8627,  -146.34,    16.8627,    93.66,          0,     0.00, 1.45519E-9,   -53.13
Line.LU23,    43.8001,   153.66,    43.8001,    33.66,    43.8001,   -86.34,          0,     0.00, 9.22292E-10,   -44.28,    43.7982,   -26.34,    43.7982,  -146.34,    43.7982,    93.66,          0,     0.00, 9.42156E-10,   135.04
Line.LU24,    46.6909,   153.66,    46.6909,    33.66,    46.6909,   -86.34,          0,     0.00, 1.13505E-9,    67.38,    46.6908,   -26.34,    46.6908,  -146.34,    46.6908,    93.66,          0,     0.00, 1.15868E-9,  -115.28
Line.LU25,    46.7035,   153.67,    46.7035,    33.67,    46.7035,   -86.33,          0,     0.00, 1.03611E-9,    37.15,    46.7032,   -26.33,    46.7032,  -146.33,    46.7032,    93.67,          0,     0.00, 1.13108E-9,  -146.41
Line.LU26,    48.1332,   153.69,    48.1332,    33.69,    48.1332,   -86.31,          0,     0.00, 1.00266E-9,    31.50,    48.1328,   -26.31,    48.1328,  -146.31,    48.1328,    93.69,          0,     0.00, 1.07714E-9,  -152.66
Line.LU27,    48.1456,   153.70,    48.1456,    33.70,    48.1456,   -86.30,          0,     0.00, 1.11425E-9,    35.53,    48.1443,   -26.30,    48.1443,  -146.30,    48.1443,    93.70,          0,     0.00, 1.08205E-9,  -143.96
Line.LU28,    48.1443,   153.70,    48.1443,    33.70,    48.1443,   -86.30,          0,     0.00, 1.18962E-9,    33.40,    48.1432,   -26.30,    48.1432,  -146.30,    48.1432,    93.70,          0,     0.00, 1.16995E-9,  -145.96
Line.LU29,    48.5187,   153.71,    48.5187,    33.71,    48.5187,   -86.29,          0,     0.00, 1.17076E-9,    30.95,    48.5163,   -26.28,    48.5163,  -146.28,    48.5163,    93.72,          0,     0.00, 1.16875E-9,  -148.78
Line.LU30,    48.5291,   153.73,    48.5291,    33.73,    48.5291,   -86.27,          0,     0.00, 1.18753E-9,    30.98,    48.5245,   -26.26,    48.5245,  -146.26,    48.5245,    93.74,          0,     0.00, 1.18551E-9,  -149.27
Line.LU31,    48.5284,   153.74,    48.5284,    33.74,    48.5284,   -86.26,          0,     0.00, 1.21101E-9,    31.11,    48.5278,   -26.26,    48.5278,  -146.26,    48.5278,    93.74,          0,     0.00, 1.18733E-9,  -149.43
Line.LU32,    26.9374,   -26.34,    26.9374,  -146.34,    26.9374,    93.66,          0,     0.00,  1.5134E-9,    67.38,    26.9374,   153.66,    26.9374,    33.66,    26.9374,   -86.34,          0,     0.00, 9.75738E-10,   -72.65
Line.LU33,    21.6387,   -26.33,    21.6387,  -146.33,    21.6387,    93.67,          0,     0.00, 1.7052E-10,   -33.69,    21.6392,   153.66,    21.6392,    33.66,    21.6392,   -86.34,          0,     0.00, 9.76172E-11,   153.43
Line.LU34,    17.7739,   -26.28,    17.7739,  -146.28,    17.7739,    93.72,          0,     0.00, 9.55662E-11,     2.18,    17.7757,   153.71,    17.7757,    33.71,    17.7757,   -86.29,          0,     0.00, 8.64786E-11,   177.59
Line.LU35,    12.8071,   -26.30,    12.8071,  -146.30,    12.8071,    93.70,          0,     0.00, 1.71603E-11,   122.01,    12.8078,   153.69,    12.8078,    33.69,    12.8078,   -86.31,          0,     0.00, 4.24647E-11,  -136.74
Line.LU36,    12.8089,   -26.32,    12.8089,  -146.32,    12.8089,    93.68,          0,     0.00, 9.20524E-11,   -60.40,    12.8094,   153.68,    12.8094,    33.68,    12.8094,   -86.32,          0,     0.00, 8.8833E-11,    79.38
Line.LU37,     10.156,   -26.32,     10.156,  -146.32,     10.156,    93.68,          0,     0.00, 4.60531E-11,     9.09,    10.1567,   153.67,    10.1567,    33.67,    10.1567,   -86.33,          0,     0.00, 9.09495E-12,   180.00
Line.LU38,    9.90211,   -26.42,    9.90211,  -146.42,    9.90211,    93.58,          0,     0.00, 4.38071E-11,    94.76,     9.9025,   153.57,     9.9025,    33.57,     9.9025,   -86.43,          0,     0.00, 1.90604E-10,   -13.24
Line.LU39,     9.5309,   -26.51,     9.5309,  -146.51,     9.5309,    93.49,          0,     0.00, 1.09155E-10,    23.57,    9.53149,   153.48,    9.53149,    33.48,    9.53149,   -86.52,          0,     0.00, 1.17223E-10,  -131.86
Line.LU40,    9.51875,   -26.56,    9.51875,  -146.56,    9.51875,    93.44,          0,     0.00, 1.09442E-10,   -15.42,    9.51944,   153.44,    9.51944,    33.44,    9.51944,   -86.56,          0,     0.00, 5.99991E-11,   165.96
Line.LU41,    1.79504,   -26.23,    1.79504,  -146.23,    1.79504,    93.77,          0,     0.00, 6.21658E-11,   -20.56,    1.79557,   153.73,    1.79557,    33.73,    1.79557,   -86.27,          0,     0.00, 6.35346E-11,  -113.63
Line.LU42,    1.09866,   153.58,    1.09866,    33.58,    1.09866,   -86.42,          0,     0.00, 2.35943E-11,  -152.45,    1.09625,   -26.17,    1.09625,  -146.17,    1.09625,    93.83,          0,     0.00, 3.58415E-11,    54.29
Line.LU43,    4.96342,   153.49,    4.96342,    33.49,    4.96342,   -86.51,          0,     0.00, 1.62695E-11,   116.57,    4.96161,   -26.47,    4.96161,  -146.47,    4.96161,    93.53,          0,     0.00, 4.19651E-11,   -60.10
Line.LU44,    4.96161,   153.53,    4.96161,    33.53,    4.96161,   -86.47,          0,     0.00, 9.83769E-12,   146.31,    4.95835,   -26.39,    4.95835,  -146.39,    4.95835,    93.61,          0,     0.00, 7.49989E-12,    14.04
Line.LU45,     4.9711,   153.68,     4.9711,    33.68,     4.9711,   -86.32,          0,     0.00, 2.02605E-11,   134.09,     4.9686,   -26.26,     4.9686,  -146.26,     4.9686,    93.74,          0,     0.00, 2.57605E-11,   -20.67
Line.LU46,    8.22205,   -26.18,    8.22205,  -146.18,    8.22205,    93.82,          0,     0.00, 2.69855E-10,    -7.75,    8.22382,   153.80,    8.22382,    33.80,    8.22382,   -86.20,          0,     0.00, 2.93962E-10,   175.03
Line.LU47,    5.32918,   -26.12,    5.32918,  -146.12,    5.32918,    93.88,          0,     0.00, 2.26024E-10,    -3.69,    5.32963,   153.87,    5.32963,    33.87,    5.32963,   -86.13,          0,     0.00, 2.4781E-10,  -176.63
Line.LU48,    5.32963,   -26.13,    5.32963,  -146.13,    5.32963,    93.87,          0,     0.00, 2.79367E-10,    -8.24,    5.33076,   153.85,    5.33076,    33.85,    5.33076,   -86.15,          0,     0.00, 3.09554E-10,   173.25
Line.LU49,    2.91889,   -26.05,    2.91889,  -146.05,    2.91889,    93.95,          0,     0.00, 2.75359E-10,   -43.39,    2.91928,   153.93,    2.91928,    33.93,    2.91928,   -86.07,          0,     0.00, 2.76319E-10,   170.91
Line.LU50,    2.89449,   -26.34,    2.89449,  -146.34,    2.89449,    93.66,          0,     0.00, 3.79925E-11,   -11.04,    2.89566,   153.61,    2.89566,    33.61,    2.89566,   -86.39,          0,     0.00, 5.50526E-11,   172.41
Line.LU51,   0.028485,     3.33,   0.028485,  -116.67,   0.028485,   123.33,          0,     0.00, 1.64636E-10,   -45.00,  0.0284369,  -179.27,  0.0284369,    60.73,  0.0284369,   -59.27,          0,     0.00, 2.48876E-10,   127.87
Line.LU52,  0.0142233,     1.61,  0.0142233,  -118.39,  0.0142233,   121.61,          0,     0.00, 2.13992E-10,  -125.31,  0.0142169,   179.85,  0.0142169,    59.85,  0.0142169,   -60.15,          0,     0.00, 1.80731E-10,   -40.10
Line.LU54,    7.05417,   -26.17,    7.05417,  -146.17,    7.05417,    93.83,          0,     0.00, 3.50628E-11,     2.97,    7.05741,   153.77,    7.05741,    33.77,    7.05741,   -86.23,          0,     0.00, 3.13611E-11,   163.14
Line.LU55,    6.46526,   -26.30,    6.46526,  -146.30,    6.46526,    93.70,          0,     0.00, 3.24914E-11,     6.43,    6.46784,   153.65,    6.46784,    33.65,    6.46784,   -86.35,          0,     0.00, 2.43746E-11,  -171.42
Line.LU56,    3.35338,   -26.34,    3.35338,  -146.34,    3.35338,    93.66,          0,     0.00, 1.20057E-11,  -114.62,    3.35631,   153.56,    3.35631,    33.56,    3.35631,   -86.44,          0,     0.00, 1.99468E-11,   133.15
Line.LU57,    27.0595,   -26.21,    27.0595,  -146.21,    27.0595,    93.79,          0,     0.00, 2.76702E-10,   -87.74,    27.0631,   153.77,    27.0631,    33.77,    27.0631,   -86.23,          0,     0.00, 2.80657E-10,    93.53
Line.LU58,    27.0502,   -26.24,    27.0502,  -146.24,    27.0502,    93.76,          0,     0.00, 2.75763E-10,   -84.89,    27.0531,   153.75,    27.0531,    33.75,    27.0531,   -86.25,          0,     0.00, 2.8259E-10,    93.88
Line.LU59,    26.4076,   -26.27,    26.4076,  -146.27,    26.4076,    93.73,          0,     0.00, 2.91856E-10,   -94.29,    26.4084,   153.72,    26.4084,    33.72,    26.4084,   -86.28,          0,     0.00, 2.70412E-10,    84.60
Line.LU60,     23.771,   -26.28,     23.771,  -146.28,     23.771,    93.72,          0,     0.00, 7.97871E-11,   -65.77,    23.7713,   153.72,    23.7713,    33.72,    23.7713,   -86.28,          0,     0.00, 1.74774E-10,    92.39
Line.LU61,     21.374,   -26.28,     21.374,  -146.28,     21.374,    93.72,          0,     0.00, 2.72874E-10,   -80.60,    21.3752,   153.71,    21.3752,    33.71,    21.3752,   -86.29,          0,     0.00, 3.14322E-10,   106.13
Line.LU62,    17.5314,   -26.23,    17.5314,  -146.23,    17.5314,    93.77,          0,     0.00, 3.49322E-10,   -88.81,    17.5317,   153.77,    17.5317,    33.77,    17.5317,   -86.23,          0,     0.00, 4.10625E-10,    82.87
Line.LU63,    15.1345,   -26.24,    15.1345,  -146.24,    15.1345,    93.76,          0,     0.00, 1.75155E-10,   -85.53,    15.1359,   153.75,    15.1359,    33.75,    15.1359,   -86.25,          0,     0.00, 1.75871E-10,    96.83
Line.LU64,    3.37289,   -26.31,    3.37289,  -146.31,    3.37289,    93.69,          0,     0.00, 8.73872E-11,   -87.61,    3.37337,   153.68,    3.37337,    33.68,    3.37337,   -86.32,          0,     0.00, 7.06368E-11,   124.51
Line.LU65,  0.0143558,     5.08,  0.0143558,  -114.92,  0.0143558,   125.08,          0,     0.00, 1.2893E-10,    16.39,  0.0142979,   179.89,  0.0142979,    59.89,  0.0142979,   -60.11,          0,     0.00, 9.35321E-11,  -166.50
Line.LU66,    11.7631,   -26.24,    11.7631,  -146.24,    11.7631,    93.76,          0,     0.00, 6.19525E-11,   -93.37,     11.765,   153.74,     11.765,    33.74,     11.765,   -86.26,          0,     0.00, 6.82121E-11,   106.26
Line.LU67,    3.36069,   -26.42,    3.36069,  -146.42,    3.36069,    93.58,          0,     0.00, 4.45931E-11,   -78.23,    3.36168,   153.55,    3.36168,    33.55,    3.36168,   -86.45,          0,     0.00, 7.24177E-11,    64.72
Line.LU68,    5.76576,   -26.15,    5.76576,  -146.15,    5.76576,    93.85,          0,     0.00, 1.18234E-11,   112.62,    5.76728,   153.82,    5.76728,    33.82,    5.76728,   -86.18,          0,     0.00, 1.66961E-11,   119.36
Line.LU69,  0.0158913,    25.83,  0.0158913,   -94.17,  0.0158913,   145.83,          0,     0.00, 9.09495E-12,   -36.87,   0.014295,   179.89,   0.014295,    59.89,   0.014295,   -60.11,          0,     0.00, 3.66629E-12,    97.13
Line.LU70,    2.87787,   -26.27,    2.87787,  -146.27,    2.87787,    93.73,          0,     0.00, 3.11361E-11,    -6.71,    2.87903,   153.68,    2.87903,    33.68,    2.87903,   -86.32,          0,     0.00, 5.32501E-11,   172.15
Line.LU73, 0.00237998,    89.89, 0.00237998,   -30.11, 0.00237998,  -150.11,          0,     0.00, 2.82383E-11,  -165.07, 2.03369E-11,  -169.70, 1.15043E-11,    71.57, 2.91038E-11,   -90.00,          0,     0.00, 2.72848E-11,  -126.87
Transformer.RAM_MANDIR,    2.88341,   -26.36,    2.88341,  -146.36,    2.88341,    93.64,          0,     0.00, 5.68434E-14,   -90.00,    76.0895,   123.52,    76.0895,     3.52,    76.0895,  -116.48, 1.50427E-8,   -57.08, 4.54747E-13,   180.00
Transformer.DEMPO_DTC,   0.317515,   -24.41,   0.317515,  -144.41,   0.317515,    95.59,          0,     0.00, 2.84217E-14,   180.00,    8.07298,   124.49,    8.07298,     4.49,    8.07298,  -115.51, 1.58568E-9,   -55.64, 1.38306E-12,  -170.54
Transformer.RB_ENGG,   0.273937,   -25.13,   0.273937,  -145.13,   0.273937,    94.87,          0,     0.00, 1.42109E-14,   -90.00,    6.92029,   123.55,    6.92029,     3.55,    6.92029,  -116.45, 1.35907E-9,   -56.58, 8.19807E-13,   146.31
Transformer.UNDIR_BAKALE,    2.88694,   -26.37,    2.88694,  -146.37,    2.88694,    93.63,          0,     0.00, 2.84217E-14,   180.00,    76.1834,   123.51,    76.1834,     3.51,    76.1834,  -116.49,  1.5081E-8,   -57.09, 9.37486E-13,   -14.04
Transformer.MULEBHAT,    3.13007,   -26.43,    3.13007,  -146.43,    3.13007,    93.57,          0,     0.00, 5.1238E-14,  -146.31,    82.6283,   123.46,    82.6283,     3.46,    82.6283,  -116.54,  1.6375E-8,   -57.19, 1.13687E-12,   -53.13
Transformer.MARUTI_TEMPLE,     2.6487,   -26.32,     2.6487,  -146.32,     2.6487,    93.68,          0,     0.00, 4.26326E-14,   180.00,     69.869,   123.55,     69.869,     3.55,     69.869,  -116.45, 1.38367E-8,   -57.01, 1.38306E-12,  -170.54
Transformer.CHIKALI,    2.40867,   -26.26,    2.40867,  -146.26,    2.40867,    93.74,          0,     0.00, 3.17764E-14,   -63.43,    63.5066,   123.59,    63.5066,     3.59,    63.5066,  -116.41, 1.25734E-8,   -56.92, 1.94268E-12,    20.56
Transformer.ADPAI,    3.86339,   -26.60,    3.86339,  -146.60,    3.86339,    93.40,          0,     0.00, 2.84217E-14,     0.00,    102.067,   123.31,    102.067,     3.31,    102.067,  -116.69, 2.03016E-8,   -57.49, 1.38306E-12,   170.54
Transformer.DURBHAT,    3.86509,   -26.60,    3.86509,  -146.60,    3.86509,    93.40,          0,     0.00, 5.85929E-14,   -14.04,    102.112,   123.31,    102.112,     3.31,    102.112,  -116.69, 2.03205E-8,   -57.49, 1.73163E-12,   156.80
Transformer.SEWERAGE,   0.358776,   -25.73,   0.358776,  -145.73,   0.358776,    94.27,          0,     0.00, 4.01944E-14,   -45.00,    9.17125,   123.26,    9.17125,     3.26,    9.17125,  -116.74, 1.80902E-9,   -56.87, 1.73163E-12,  -156.80
