Bus, BasekV, Node1, Magnitude1, Angle1, pu1, Node2, Magnitude2, Angle2, pu2, Node3, Magnitude3, Angle3, pu3
"MADKAI_SS", 11, 1,    6346.07,   -0.1,   0.99925, 2,    6346.07, -120.1,   0.99925, 3,    6346.07,  119.9,   0.99925
"3_WAY_KHARWADA", 11, 1,    6322.66,   -0.1,   0.99556, 2,    6322.66, -120.1,   0.99556, 3,    6322.66,  119.9,   0.99556
"KONAR_GAUNEM_DTC", 11, 1,    6340.44,   -0.1,   0.99836, 2,    6340.44, -120.1,   0.99836, 3,    6340.44,  119.9,   0.99836
"RAM_MANDIR", 11, 1,    6319.89,   -0.1,   0.99512, 2,    6319.89, -120.1,   0.99512, 3,    6319.89,  119.9,   0.99512
"DEMPO_DTC", 11, 1,    6315.61,   -0.1,   0.99445, 2,    6315.61, -120.1,   0.99445, 3,    6315.61,  119.9,   0.99445
"RB_ENGG", 11, 1,    6313.92,   -0.1,   0.99418, 2,    6313.92, -120.1,   0.99418, 3,    6313.92,  119.9,   0.99418
"UNDIR_BAKALE", 11, 1,    6312.23,   -0.1,   0.99392, 2,    6312.23, -120.1,   0.99392, 3,    6312.23,  119.9,   0.99392
"MULEBHAT", 11, 1,    6309.17,   -0.1,   0.99344, 2,    6309.17, -120.1,   0.99344, 3,    6309.17,  119.9,   0.99344
"MARUTI_TEMPLE", 11, 1,    6305.04,   -0.1,   0.99279, 2,    6305.04, -120.1,   0.99279, 3,    6305.04,  119.9,   0.99279
"CHIKALI", 11, 1,    6301.92,   -0.1,    0.9923, 2,    6301.92, -120.1,    0.9923, 3,    6301.92,  119.9,    0.9923
"ADPAI", 11, 1,    6299.07,   -0.1,   0.99185, 2,    6299.07, -120.1,   0.99185, 3,    6299.07,  119.9,   0.99185
"DURBHAT", 11, 1,    6296.34,   -0.1,   0.99142, 2,    6296.34, -120.1,   0.99142, 3,    6296.34,  119.9,   0.99142
"SEWERAGE", 11, 1,    6296.31,   -0.1,   0.99141, 2,    6296.31, -120.1,   0.99141, 3,    6296.31,  119.9,   0.99141
"KASWADA", 11, 1,    6295.23,   -0.1,   0.99124, 2,    6295.23, -120.1,   0.99124, 3,    6295.23,  119.9,   0.99124
"LONDIYAR_WADEM", 11, 1,    6294.43,   -0.1,   0.99112, 2,    6294.43, -120.1,   0.99112, 3,    6294.43,  119.9,   0.99112
"3_WAY_TALAULIM", 11, 1,     6294.4,   -0.1,   0.99111, 2,     6294.4, -120.1,   0.99111, 3,     6294.4,  119.9,   0.99111
"NEW_TALAULIM", 11, 1,    6294.26,   -0.1,   0.99109, 2,    6294.26, -120.1,   0.99109, 3,    6294.26,  119.9,   0.99109
"WADI", 11, 1,    6293.86,   -0.1,   0.99103, 2,    6293.86, -120.1,   0.99103, 3,    6293.86,  119.9,   0.99103
"TALAULIM", 11, 1,    6294.19,   -0.1,   0.99108, 2,    6294.19, -120.1,   0.99108, 3,    6294.19,  119.9,   0.99108
"MAHALAKSHMI_NAGAR", 11, 1,    6294.09,   -0.1,   0.99106, 2,    6294.09, -120.1,   0.99106, 3,    6294.09,  119.9,   0.99106
"PAUNWADA", 11, 1,    6294.34,   -0.1,    0.9911, 2,    6294.34, -120.1,    0.9911, 3,    6294.34,  119.9,    0.9911
"3_WAY_DON_KHAMB", 11, 1,    6294.57,   -0.1,   0.99114, 2,    6294.57, -120.1,   0.99114, 3,    6294.57,  119.9,   0.99114
"KAVLE_MATH", 11, 1,    6295.62,   -0.1,    0.9913, 2,    6295.62, -120.1,    0.9913, 3,    6295.62,  119.9,    0.9913
"SHANTADURGA_OLD", 11, 1,    6296.45,   -0.1,   0.99143, 2,    6296.45, -120.1,   0.99143, 3,    6296.45,  119.9,   0.99143
"3_WAY_SHANTADURGA", 11, 1,    6296.49,   -0.1,   0.99144, 2,    6296.49, -120.1,   0.99144, 3,    6296.49,  119.9,   0.99144
"SANATAN_1", 11, 1,    6299.94,   -0.1,   0.99198, 2,    6299.94, -120.1,   0.99198, 3,    6299.94,  119.9,   0.99198
"SANATAN_2", 11, 1,    6300.08,   -0.1,   0.99201, 2,    6300.08, -120.1,   0.99201, 3,    6300.08,  119.9,   0.99201
"RAMNATHI_DEVASTHAN", 11, 1,    6300.69,   -0.1,    0.9921, 2,    6300.69, -120.1,    0.9921, 3,    6300.69,  119.9,    0.9921
"RAMNATHI", 11, 1,    6301.58,   -0.1,   0.99224, 2,    6301.58, -120.1,   0.99224, 3,    6301.58,  119.9,   0.99224
"3_WAY_RAMNATHI", 11, 1,    6304.22,   -0.1,   0.99266, 2,    6304.22, -120.1,   0.99266, 3,    6304.22,  119.9,   0.99266
"RPRS_SCHOOL", 11, 1,    6306.64,   -0.1,   0.99304, 2,    6306.64, -120.1,   0.99304, 3,    6306.64,  119.9,   0.99304
"TOLULEM", 11, 1,    6311.72,   -0.1,   0.99384, 2,    6311.72, -120.1,   0.99384, 3,    6311.72,  119.9,   0.99384
"KHARWADA", 11, 1,     6321.3,   -0.1,   0.99535, 2,     6321.3, -120.1,   0.99535, 3,     6321.3,  119.9,   0.99535
"SHANTADURGA_NEW", 11, 1,    6296.44,   -0.1,   0.99143, 2,    6296.44, -120.1,   0.99143, 3,    6296.44,  119.9,   0.99143
"GALSHIRE", 11, 1,    6295.94,   -0.1,   0.99135, 2,    6295.94, -120.1,   0.99135, 3,    6295.94,  119.9,   0.99135
"3_WAY_GALSHIRE", 11, 1,     6294.6,   -0.1,   0.99114, 2,     6294.6, -120.1,   0.99114, 3,     6294.6,  119.9,   0.99114
"3_WAY_HARISH_BAR", 11, 1,     6294.2,   -0.1,   0.99108, 2,     6294.2, -120.1,   0.99108, 3,     6294.2,  119.9,   0.99108
"SNEH_MANDIR", 11, 1,    6293.88,   -0.1,   0.99103, 2,    6293.88, -120.1,   0.99103, 3,    6293.88,  119.9,   0.99103
"RAJENDRA_TALAK", 11, 1,    6293.59,   -0.1,   0.99098, 2,    6293.59, -120.1,   0.99098, 3,    6293.59,  119.9,   0.99098
"RITESH_DEVELOPERS", 11, 1,    6293.42,   -0.1,   0.99096, 2,    6293.42, -120.1,   0.99096, 3,    6293.42,  119.9,   0.99096
"VENKATESH_LEELA", 11, 1,    6293.18,   -0.1,   0.99092, 2,    6293.18, -120.1,   0.99092, 3,    6293.18,  119.9,   0.99092
"PERIGOL", 11, 1,     6292.9,   -0.1,   0.99088, 2,     6292.9, -120.1,   0.99088, 3,     6292.9,  119.9,   0.99088
"MANMOHAN_SINGH", 11, 1,    6292.86,   -0.1,   0.99087, 2,    6292.86, -120.1,   0.99087, 3,    6292.86,  119.9,   0.99087
"DHUMRE", 11, 1,    6292.97,   -0.1,   0.99089, 2,    6292.97, -120.1,   0.99089, 3,    6292.97,  119.9,   0.99089
"3_WAY_ROYAL_ENFIELD", 11, 1,    6293.36,   -0.1,   0.99095, 2,    6293.36, -120.1,   0.99095, 3,    6293.36,  119.9,   0.99095
"SHASHIKALA_PAI", 11, 1,    6294.06,   -0.1,   0.99106, 2,    6294.06, -120.1,   0.99106, 3,    6294.06,  119.9,   0.99106
"KAPILESHWARI", 11, 1,    6293.94,   -0.1,   0.99104, 2,    6293.94, -120.1,   0.99104, 3,    6293.94,  119.9,   0.99104
"3_WAY_RATHAMAL", 11, 1,    6293.83,   -0.1,   0.99102, 2,    6293.83, -120.1,   0.99102, 3,    6293.83,  119.9,   0.99102
"MATRUCHAYA", 11, 1,    6293.57,   -0.1,   0.99098, 2,    6293.57, -120.1,   0.99098, 3,    6293.57,  119.9,   0.99098
"3_WAY_SHANTINAGAR", 11, 1,    6293.52,   -0.1,   0.99097, 2,    6293.52, -120.1,   0.99097, 3,    6293.52,  119.9,   0.99097
"VAMNESHWAR", 11, 1,    6293.37,   -0.1,   0.99095, 2,    6293.37, -120.1,   0.99095, 3,    6293.37,  119.9,   0.99095
"GOLDEN_PROPERTIES", 11, 1,    6293.52,   -0.1,   0.99097, 2,    6293.52, -120.1,   0.99097, 3,    6293.52,  119.9,   0.99097
"RITESH", 11, 1,    6293.52,   -0.1,   0.99097, 2,    6293.52, -120.1,   0.99097, 3,    6293.52,  119.9,   0.99097
"MG_SCHOOL_DTC", 11, 1,    6339.46,   -0.1,   0.99821, 2,    6339.46, -120.1,   0.99821, 3,    6339.46,  119.9,   0.99821
"CHAFERAN_DTC", 11, 1,    6338.74,   -0.1,   0.99809, 2,    6338.74, -120.1,   0.99809, 3,    6338.74,  119.9,   0.99809
"SHIGUMOMAND_DTC", 11, 1,    6338.32,   -0.1,   0.99803, 2,    6338.32, -120.1,   0.99803, 3,    6338.32,  119.9,   0.99803
"MOGRU_DTC", 11, 1,    6336.27,   -0.1,    0.9977, 2,    6336.27, -120.1,    0.9977, 3,    6336.27,  119.9,    0.9977
"SHAMRAO_BUILDERS_DTC", 11, 1,    6332.92,   -0.1,   0.99718, 2,    6332.92, -120.1,   0.99718, 3,    6332.92,  119.9,   0.99718
"KUNAL_DTC", 11, 1,    6332.01,   -0.1,   0.99703, 2,    6332.01, -120.1,   0.99703, 3,    6332.01,  119.9,   0.99703
"PEARL_DTC", 11, 1,    6331.69,   -0.1,   0.99698, 2,    6331.69, -120.1,   0.99698, 3,    6331.69,  119.9,   0.99698
"MAHALAXMI_BANDORA_DTC", 11, 1,    6330.58,   -0.1,   0.99681, 2,    6330.58, -120.1,   0.99681, 3,    6330.58,  119.9,   0.99681
"AGRA_SHALA_DTC", 11, 1,    6330.36,   -0.1,   0.99677, 2,    6330.36, -120.1,   0.99677, 3,    6330.36,  119.9,   0.99677
"TILVE_RMU", 11, 1,    6329.42,   -0.1,   0.99662, 2,    6329.42, -120.1,   0.99662, 3,    6329.42,  119.9,   0.99662
"HINDU_JAN_JAGRUTI_DTC", 11, 1,    6329.35,   -0.1,   0.99661, 2,    6329.35, -120.1,   0.99661, 3,    6329.35,  119.9,   0.99661
"VAGDOR_DTC", 11, 1,    6329.35,   -0.1,   0.99661, 2,    6329.35, -120.1,   0.99661, 3,    6329.35,  119.9,   0.99661
"NAGESHI_TEMPLE_DTC", 11, 1,    6328.45,   -0.1,   0.99647, 2,    6328.45, -120.1,   0.99647, 3,    6328.45,  119.9,   0.99647
"DHONSHI_DTC", 11, 1,    6328.31,   -0.1,   0.99645, 2,    6328.31, -120.1,   0.99645, 3,    6328.31,  119.9,   0.99645
"BANDORA_PANCHAYAT_RMU", 11, 1,    6328.07,   -0.1,   0.99641, 2,    6328.07, -120.1,   0.99641, 3,    6328.07,  119.9,   0.99641
"KASHIMATHGROUND_DTC", 11, 1,    6328.07,   -0.1,   0.99641, 2,    6328.07, -120.1,   0.99641, 3,    6328.07,  119.9,   0.99641
"RAINGUINIM", 11, 1,    6327.93,   -0.1,   0.99639, 2,    6327.93, -120.1,   0.99639, 3,    6327.93,  119.9,   0.99639
"3_WAY_SNEH_MANDIR", 11, 1,     6294.2,   -0.1,   0.99108, 2,     6294.2, -120.1,   0.99108, 3,     6294.2,  119.9,   0.99108
"RAM_MANDIRBUS1", 0.415, 1,    236.568,  -30.6,   0.98734, 2,    236.568, -150.6,   0.98734, 3,    236.568,   89.4,   0.98734
"DEMPO_DTCBUS1", 0.415, 1,    238.073,  -30.1,   0.99363, 2,    238.073, -150.1,   0.99363, 3,    238.073,   89.9,   0.99363
"RB_ENGGBUS1", 0.415, 1,    238.034,  -30.1,   0.99346, 2,    238.034, -150.1,   0.99346, 3,    238.034,   89.9,   0.99346
"UNDIR_BAKALEBUS1", 0.415, 1,    236.277,  -30.6,   0.98613, 2,    236.277, -150.6,   0.98613, 3,    236.277,   89.4,   0.98613
"MULEBHATBUS1", 0.415, 1,    236.003,  -30.7,   0.98498, 2,    236.003, -150.7,   0.98498, 3,    236.003,   89.3,   0.98498
"MARUTI_TEMPLEBUS1", 0.415, 1,    236.161,  -30.6,   0.98564, 2,    236.161, -150.6,   0.98564, 3,    236.161,   89.4,   0.98564
"CHIKALIBUS1", 0.415, 1,    236.199,  -30.6,   0.98581, 2,    236.199, -150.6,   0.98581, 3,    236.199,   89.4,   0.98581
"ADPAIBUS1", 0.415, 1,    235.142,  -30.8,   0.98139, 2,    235.142, -150.8,   0.98139, 3,    235.142,   89.2,   0.98139
"DURBHATBUS1", 0.415, 1,    235.038,  -30.9,   0.98096, 2,    235.038, -150.9,   0.98096, 3,    235.038,   89.1,   0.98096
"SEWERAGEBUS1", 0.415, 1,    237.313,  -30.2,   0.99045, 2,    237.313, -150.2,   0.99045, 3,    237.313,   89.8,   0.99045
"KASWADABUS1", 0.415, 1,    235.155,  -30.8,   0.98145, 2,    235.155, -150.8,   0.98145, 3,    235.155,   89.2,   0.98145
"LONDIYAR_WADEMBUS1", 0.415, 1,    234.965,  -30.9,   0.98065, 2,    234.965, -150.9,   0.98065, 3,    234.965,   89.1,   0.98065
"NEW_TALAULIMBUS1", 0.415, 1,    236.514,  -30.4,   0.98712, 2,    236.514, -150.4,   0.98712, 3,    236.514,   89.6,   0.98712
"WADIBUS1", 0.415, 1,    235.736,  -30.6,   0.98387, 2,    235.736, -150.6,   0.98387, 3,    235.736,   89.4,   0.98387
"TALAULIMBUS1", 0.415, 1,    235.865,  -30.6,   0.98441, 2,    235.865, -150.6,   0.98441, 3,    235.865,   89.4,   0.98441
"MAHALAKSHMI_NAGARBUS1", 0.415, 1,    234.952,  -30.9,    0.9806, 2,    234.952, -150.9,    0.9806, 3,    234.952,   89.1,    0.9806
"PAUNWADABUS1", 0.415, 1,    234.991,  -31.0,   0.98076, 2,    234.991, -151.0,   0.98076, 3,    234.991,   89.0,   0.98076
"KAVLE_MATHBUS1", 0.415, 1,    236.659,  -30.4,   0.98772, 2,    236.659, -150.4,   0.98772, 3,    236.659,   89.6,   0.98772
"SHANTADURGA_OLDBUS1", 0.415, 1,    236.823,  -30.3,   0.98841, 2,    236.823, -150.3,   0.98841, 3,    236.823,   89.7,   0.98841
"SANATAN_1BUS1", 0.415, 1,    235.809,  -30.7,   0.98418, 2,    235.809, -150.7,   0.98418, 3,    235.809,   89.3,   0.98418
"SANATAN_2BUS1", 0.415, 1,    237.682,  -30.1,   0.99199, 2,    237.682, -150.1,   0.99199, 3,    237.682,   89.9,   0.99199
"RAMNATHI_DEVASTHANBUS1", 0.415, 1,     236.82,  -30.4,    0.9884, 2,     236.82, -150.4,    0.9884, 3,     236.82,   89.6,    0.9884
"RAMNATHIBUS1", 0.415, 1,    237.738,  -30.1,   0.99223, 2,    237.738, -150.1,   0.99223, 3,    237.738,   89.9,   0.99223
"RPRS_SCHOOLBUS1", 0.415, 1,    237.695,  -30.2,   0.99205, 2,    237.695, -150.2,   0.99205, 3,    237.695,   89.8,   0.99205
"TOLULEMBUS1", 0.415, 1,    238.121,  -30.1,   0.99382, 2,    238.121, -150.1,   0.99382, 3,    238.121,   89.9,   0.99382
"KHARWADABUS1", 0.415, 1,    238.482,  -30.1,   0.99533, 2,    238.482, -150.1,   0.99533, 3,    238.482,   89.9,   0.99533
"SHANTADURGA_NEWBUS1", 0.415, 1,    235.968,  -30.6,   0.98484, 2,    235.968, -150.6,   0.98484, 3,    235.968,   89.4,   0.98484
"GALSHIREBUS1", 0.415, 1,    235.023,  -30.9,    0.9809, 2,    235.023, -150.9,    0.9809, 3,    235.023,   89.1,    0.9809
"RAJENDRA_TALAKBUS1", 0.415, 1,    237.397,  -30.1,    0.9908, 2,    237.397, -150.1,    0.9908, 3,    237.397,   89.9,    0.9908
"RITESH_DEVELOPERSBUS1", 0.415, 1,    237.329,  -30.1,   0.99052, 2,    237.329, -150.1,   0.99052, 3,    237.329,   89.9,   0.99052
"VENKATESH_LEELABUS1", 0.415, 1,    237.421,  -30.1,   0.99091, 2,    237.421, -150.1,   0.99091, 3,    237.421,   89.9,   0.99091
"PERIGOLBUS1", 0.415, 1,    235.124,  -30.9,   0.98132, 2,    235.124, -150.9,   0.98132, 3,    235.124,   89.1,   0.98132
"MANMOHAN_SINGHBUS1", 0.415, 1,    235.676,  -30.6,   0.98362, 2,    235.676, -150.6,   0.98362, 3,    235.676,   89.4,   0.98362
"DHUMREBUS1", 0.415, 1,     234.91,  -30.9,   0.98042, 2,     234.91, -150.9,   0.98042, 3,     234.91,   89.1,   0.98042
"SHASHIKALA_PAIBUS1", 0.415, 1,    237.454,  -30.1,   0.99104, 2,    237.454, -150.1,   0.99104, 3,    237.454,   89.9,   0.99104
"KAPILESHWARIBUS1", 0.415, 1,    235.641,  -30.6,   0.98348, 2,    235.641, -150.6,   0.98348, 3,    235.641,   89.4,   0.98348
"MATRUCHAYABUS1", 0.415, 1,    235.882,  -30.6,   0.98448, 2,    235.882, -150.6,   0.98448, 3,    235.882,   89.4,   0.98448
"VAMNESHWARBUS1", 0.415, 1,    235.559,  -30.7,   0.98313, 2,    235.559, -150.7,   0.98313, 3,    235.559,   89.3,   0.98313
"GOLDEN_PROPERTIESBUS1", 0.415, 1,    237.434,  -30.1,   0.99096, 2,    237.434, -150.1,   0.99096, 3,    237.434,   89.9,   0.99096
"RITESHBUS1", 0.415, 1,    237.434,  -30.1,   0.99096, 2,    237.434, -150.1,   0.99096, 3,    237.434,   89.9,   0.99096
"SNEHMANDIR_LV", 0.415, 1,    235.737,  -30.6,   0.98387, 2,    235.737, -150.6,   0.98387, 3,    235.737,   89.4,   0.98387
"RAINGUINIM_LV", 0.415, 1,    236.931,  -30.6,   0.98886, 2,    236.931, -150.6,   0.98886, 3,    236.931,   89.4,   0.98886
"BANDORAP_LV", 0.415, 1,    236.879,  -30.6,   0.98864, 2,    236.879, -150.6,   0.98864, 3,    236.879,   89.4,   0.98864
"KASHIMATHG_LV", 0.415, 1,    238.737,  -30.1,    0.9964, 2,    238.737, -150.1,    0.9964, 3,    238.737,   89.9,    0.9964
"NAGESHIT_LV", 0.415, 1,    237.078,  -30.6,   0.98947, 2,    237.078, -150.6,   0.98947, 3,    237.078,   89.4,   0.98947
"DHONSHI_LV", 0.415, 1,    236.573,  -30.7,   0.98737, 2,    236.573, -150.7,   0.98737, 3,    236.573,   89.3,   0.98737
"AGRASHALA_LV", 0.415, 1,    237.337,  -30.5,   0.99055, 2,    237.337, -150.5,   0.99055, 3,    237.337,   89.5,   0.99055
"HINDUJAN_LV", 0.415, 1,    236.613,  -30.7,   0.98753, 2,    236.613, -150.7,   0.98753, 3,    236.613,   89.3,   0.98753
"VAGDOR_LV", 0.415, 1,    238.786,  -30.1,    0.9966, 2,    238.786, -150.1,    0.9966, 3,    238.786,   89.9,    0.9966
"MAHALAXMI_LV", 0.415, 1,    236.344,  -30.8,   0.98641, 2,    236.344, -150.8,   0.98641, 3,    236.344,   89.2,   0.98641
"PEARL_LV", 0.415, 1,     237.33,  -30.5,   0.99052, 2,     237.33, -150.5,   0.99052, 3,     237.33,   89.5,   0.99052
"KUNAL_LV", 0.415, 1,    237.186,  -30.6,   0.98992, 2,    237.186, -150.6,   0.98992, 3,    237.186,   89.4,   0.98992
"SHAMRAO_LV", 0.415, 1,    238.512,  -30.2,   0.99546, 2,    238.512, -150.2,   0.99546, 3,    238.512,   89.8,   0.99546
"MOGRU_LV", 0.415, 1,    239.047,  -30.1,   0.99769, 2,    239.047, -150.1,   0.99769, 3,    239.047,   89.9,   0.99769
"KONARGAUNEM_LV", 0.415, 1,    237.595,  -30.5,   0.99163, 2,    237.595, -150.5,   0.99163, 3,    237.595,   89.5,   0.99163
"MGSCHOOL_LV", 0.415, 1,    238.791,  -30.2,   0.99662, 2,    238.791, -150.2,   0.99662, 3,    238.791,   89.8,   0.99662
"CHAFERAN_LV", 0.415, 1,    237.193,  -30.6,   0.98995, 2,    237.193, -150.6,   0.98995, 3,    237.193,   89.4,   0.98995
"SHIGUMOMAND_LV", 0.415, 1,    236.955,  -30.7,   0.98896, 2,    236.955, -150.7,   0.98896, 3,    236.955,   89.3,   0.98896
"COLONY_SS", 11, 1,    6281.28,   -0.6,   0.98905, 2,    6281.28, -120.6,   0.98905, 3,    6281.28,  119.4,   0.98905
"3_WAY_GOA_DAIRY_1", 11, 1,    6278.99,   -0.6,   0.98868, 2,    6278.99, -120.6,   0.98868, 3,    6278.99,  119.4,   0.98868
"FORENSIC", 11, 1,    6277.51,   -0.6,   0.98845, 2,    6277.51, -120.6,   0.98845, 3,    6277.51,  119.4,   0.98845
"DADA_VAIDYA", 11, 1,       6276,   -0.6,   0.98821, 2,       6276, -120.6,   0.98821, 3,       6276,  119.4,   0.98821
"3_WAY_DADA_VAIDYA", 11, 1,    6275.89,   -0.6,    0.9882, 2,    6275.89, -120.6,    0.9882, 3,    6275.89,  119.4,    0.9882
"AGARWAL_GARDENS", 11, 1,    6274.14,   -0.6,   0.98792, 2,    6274.14, -120.6,   0.98792, 3,    6274.14,  119.4,   0.98792
"FIBERGLASS", 11, 1,    6272.97,   -0.6,   0.98774, 2,    6272.97, -120.6,   0.98774, 3,    6272.97,  119.4,   0.98774
"4_WAY_SAISERVICE", 11, 1,    6272.53,   -0.6,   0.98767, 2,    6272.53, -120.6,   0.98767, 3,    6272.53,  119.4,   0.98767
"AGARWAL_HTC", 11, 1,    6272.43,   -0.6,   0.98765, 2,    6272.43, -120.6,   0.98765, 3,    6272.43,  119.4,   0.98765
"YUMMY_ICECREAM", 11, 1,    6272.44,   -0.6,   0.98765, 2,    6272.44, -120.6,   0.98765, 3,    6272.44,  119.4,   0.98765
"SHIVLAL", 11, 1,    6272.46,   -0.6,   0.98766, 2,    6272.46, -120.6,   0.98766, 3,    6272.46,  119.4,   0.98766
"KELBAI", 11, 1,    6272.77,   -0.6,   0.98771, 2,    6272.77, -120.6,   0.98771, 3,    6272.77,  119.4,   0.98771
"3_WAY_DOCTOR", 11, 1,    6273.05,   -0.6,   0.98775, 2,    6273.05, -120.6,   0.98775, 3,    6273.05,  119.4,   0.98775
"SURYA_MASALA", 11, 1,    6272.56,   -0.6,   0.98767, 2,    6272.56, -120.6,   0.98767, 3,    6272.56,  119.4,   0.98767
"PISGAL", 11, 1,     6272.4,   -0.6,   0.98765, 2,     6272.4, -120.6,   0.98765, 3,     6272.4,  119.4,   0.98765
"3_WAY_GOADAIRY2", 11, 1,    6278.94,   -0.6,   0.98868, 2,    6278.94, -120.6,   0.98868, 3,    6278.94,  119.4,   0.98868
"DAIRY_HTC", 11, 1,    6278.87,   -0.6,   0.98867, 2,    6278.87, -120.6,   0.98867, 3,    6278.87,  119.4,   0.98867
"DAIRY_OLD", 11, 1,    6278.43,   -0.6,    0.9886, 2,    6278.43, -120.6,    0.9886, 3,    6278.43,  119.4,    0.9886
"3_WAY_MICROWAVE", 11, 1,    6277.01,   -0.6,   0.98837, 2,    6277.01, -120.6,   0.98837, 3,    6277.01,  119.4,   0.98837
"MICROWAVE", 11, 1,    6276.98,   -0.6,   0.98837, 2,    6276.98, -120.6,   0.98837, 3,    6276.98,  119.4,   0.98837
"3_WAY_VEREKAR", 11, 1,    6276.23,   -0.6,   0.98825, 2,    6276.23, -120.6,   0.98825, 3,    6276.23,  119.4,   0.98825
"3_WAY_SAHAKARI", 11, 1,    6276.23,   -0.6,   0.98825, 2,    6276.23, -120.6,   0.98825, 3,    6276.23,  119.4,   0.98825
"ECAP_HTC", 11, 1,    6271.97,   -0.6,   0.98758, 2,    6271.97, -120.6,   0.98758, 3,    6271.97,  119.4,   0.98758
"PRAKASH", 11, 1,    6271.91,   -0.6,   0.98757, 2,    6271.91, -120.6,   0.98757, 3,    6271.91,  119.4,   0.98757
"KAYJI_SKYLINE", 11, 1,    6271.65,   -0.6,   0.98753, 2,    6271.65, -120.6,   0.98753, 3,    6271.65,  119.4,   0.98753
"RUDRA_DEVELOPER", 11, 1,    6271.57,   -0.6,   0.98752, 2,    6271.57, -120.6,   0.98752, 3,    6271.57,  119.4,   0.98752
"3_WAY_KHADPABANDH", 11, 1,    6271.57,   -0.6,   0.98752, 2,    6271.57, -120.6,   0.98752, 3,    6271.57,  119.4,   0.98752
"ASSOCIATE", 11, 1,    6272.14,   -0.6,   0.98761, 2,    6272.14, -120.6,   0.98761, 3,    6272.14,  119.4,   0.98761
"KV_SCHOOL", 11, 1,    6272.08,   -0.6,    0.9876, 2,    6272.08, -120.6,    0.9876, 3,    6272.08,  119.4,    0.9876
"KORDE", 11, 1,    6271.94,   -0.6,   0.98757, 2,    6271.94, -120.6,   0.98757, 3,    6271.94,  119.4,   0.98757
"KAPAT_FACTORY", 11, 1,    6271.89,   -0.6,   0.98757, 2,    6271.89, -120.6,   0.98757, 3,    6271.89,  119.4,   0.98757
"2_WAY_CONEMI", 11, 1,    6271.89,   -0.6,   0.98757, 2,    6271.89, -120.6,   0.98757, 3,    6271.89,  119.4,   0.98757
"3_WAY_COPPERWADA_2", 11, 1,    6275.04,   -0.6,   0.98806, 2,    6275.04, -120.6,   0.98806, 3,    6275.04,  119.4,   0.98806
