Bus, BasekV, Node1, Magnitude1, Angle1, pu1, Node2, Magnitude2, Angle2, pu2, Node3, Magnitude3, Angle3, pu3
"SUBSTATION", 11, 1,    6343.51,   -0.1,   0.99884, 2,    6343.51, -120.1,   0.99884, 3,    6343.51,  119.9,   0.99884
"HAVELI_PANCHAYAT", 11, 1,    6321.99,   -0.1,   0.99546, 2,    6321.99, -120.1,   0.99546, 3,    6321.99,  119.9,   0.99546
"MILITARY_HTC", 11, 1,     6305.6,   -0.1,   0.99287, 2,     6305.6, -120.1,   0.99287, 3,     6305.6,  119.9,   0.99287
"4W_MILITARY_GATE", 11, 1,    6273.37,   -0.1,    0.9878, 2,    6273.37, -120.1,    0.9878, 3,    6273.37,  119.9,    0.9878
"3W_SPORTS_COMPLEX", 11, 1,    6273.37,   -0.1,    0.9878, 2,    6273.37, -120.1,    0.9878, 3,    6273.37,  119.9,    0.9878
"3_WAY_MARUTI_TEMPLE", 11, 1,    6273.37,   -0.1,    0.9878, 2,    6273.37, -120.1,    0.9878, 3,    6273.37,  119.9,    0.9878
"MILITARY_GATE", 11, 1,    6272.82,   -0.1,   0.98771, 2,    6272.82, -120.1,   0.98771, 3,    6272.82,  119.9,   0.98771
"3_WAY_SAFA_MASJID", 11, 1,     6261.9,   -0.2,   0.98599, 2,     6261.9, -120.2,   0.98599, 3,     6261.9,  119.8,   0.98599
"RTO_OFFICE_NEW", 11, 1,    6261.63,   -0.2,   0.98595, 2,    6261.63, -120.2,   0.98595, 3,    6261.63,  119.8,   0.98595
"CHIRPUTEM_SCHOOL", 11, 1,     6261.3,   -0.2,    0.9859, 2,     6261.3, -120.2,    0.9859, 3,     6261.3,  119.8,    0.9859
"2W_KAPAT", 11, 1,     6261.3,   -0.2,    0.9859, 2,     6261.3, -120.2,    0.9859, 3,     6261.3,  119.8,    0.9859
"SHAPUR", 11, 1,     6256.7,   -0.2,   0.98517, 2,     6256.7, -120.2,   0.98517, 3,     6256.7,  119.8,   0.98517
"3_WAY_AMBEGAL", 11, 1,    6251.59,   -0.2,   0.98437, 2,    6251.59, -120.2,   0.98437, 3,    6251.59,  119.8,   0.98437
"4_WAY_AMBEGAL", 11, 1,    6248.15,   -0.2,   0.98383, 2,    6248.15, -120.2,   0.98383, 3,    6248.15,  119.8,   0.98383
"AMBEGAL", 11, 1,     6247.7,   -0.2,   0.98376, 2,     6247.7, -120.2,   0.98376, 3,     6247.7,  119.8,   0.98376
"PATTANTALI", 11, 1,    6247.28,   -0.2,   0.98369, 2,    6247.28, -120.2,   0.98369, 3,    6247.28,  119.8,   0.98369
"PANKAJ_BUILDERS", 11, 1,    6240.59,   -0.2,   0.98264, 2,    6240.59, -120.2,   0.98264, 3,    6240.59,  119.8,   0.98264
"KASHIMATH", 11, 1,    6229.39,   -0.2,   0.98087, 2,    6229.39, -120.2,   0.98087, 3,    6229.39,  119.8,   0.98087
"3_WAY_KASHIMATH", 11, 1,    6228.12,   -0.2,   0.98067, 2,    6228.12, -120.2,   0.98067, 3,    6228.12,  119.8,   0.98067
"2_WAY_NAGESHI", 11, 1,    6228.12,   -0.2,   0.98067, 2,    6228.12, -120.2,   0.98067, 3,    6228.12,  119.8,   0.98067
"GVMS", 11, 1,    6215.37,   -0.2,   0.97867, 2,    6215.37, -120.2,   0.97867, 3,    6215.37,  119.8,   0.97867
"SAHAKARI", 11, 1,    6209.93,   -0.2,   0.97781, 2,    6209.93, -120.2,   0.97781, 3,    6209.93,  119.8,   0.97781
"IMA", 11, 1,    6205.33,   -0.2,   0.97709, 2,    6205.33, -120.2,   0.97709, 3,    6205.33,  119.8,   0.97709
"SHIVNAGARI", 11, 1,    6197.88,   -0.2,   0.97591, 2,    6197.88, -120.2,   0.97591, 3,    6197.88,  119.8,   0.97591
"4_WAY_PES", 11, 1,    6194.02,   -0.2,    0.9753, 2,    6194.02, -120.2,    0.9753, 3,    6194.02,  119.8,    0.9753
"PES", 11, 1,    6193.45,   -0.2,   0.97522, 2,    6193.45, -120.2,   0.97522, 3,    6193.45,  119.8,   0.97522
"3_WAY_POLICE_OUTPOST", 11, 1,    6193.24,   -0.2,   0.97518, 2,    6193.24, -120.2,   0.97518, 3,    6193.24,  119.8,   0.97518
"CONEM_I_HIGHWAY", 11, 1,    6192.95,   -0.2,   0.97514, 2,    6192.95, -120.2,   0.97514, 3,    6192.95,  119.8,   0.97514
"2_WAY_CONEM_HIGHWAY", 11, 1,    6192.78,   -0.2,   0.97511, 2,    6192.78, -120.2,   0.97511, 3,    6192.78,  119.8,   0.97511
"CONEM_II", 11, 1,    6192.71,   -0.2,    0.9751, 2,    6192.71, -120.2,    0.9751, 3,    6192.71,  119.8,    0.9751
"GANESH_TEMPLE", 11, 1,     6193.8,   -0.2,   0.97527, 2,     6193.8, -120.2,   0.97527, 3,     6193.8,  119.8,   0.97527
"NAGESHI", 11, 1,     6193.8,   -0.2,   0.97527, 2,     6193.8, -120.2,   0.97527, 3,     6193.8,  119.8,   0.97527
"GTDC_TOURIST", 11, 1,    6193.54,   -0.2,   0.97523, 2,    6193.54, -120.2,   0.97523, 3,    6193.54,  119.8,   0.97523
"4_WAY_HOUSINGBOARD", 11, 1,    6182.65,   -0.2,   0.97352, 2,    6182.65, -120.2,   0.97352, 3,    6182.65,  119.8,   0.97352
"SAAD_PHASE_II", 11, 1,     6182.4,   -0.2,   0.97348, 2,     6182.4, -120.2,   0.97348, 3,     6182.4,  119.8,   0.97348
"SUNRISE_CASHEW", 11, 1,    6181.66,   -0.2,   0.97336, 2,    6181.66, -120.2,   0.97336, 3,    6181.66,  119.8,   0.97336
"SAAD_I", 11, 1,    6180.02,   -0.2,    0.9731, 2,    6180.02, -120.2,    0.9731, 3,    6180.02,  119.8,    0.9731
"SAAD_II", 11, 1,    6179.81,   -0.2,   0.97307, 2,    6179.81, -120.2,   0.97307, 3,    6179.81,  119.8,   0.97307
"GEC_BANDORA", 11, 1,    6179.46,   -0.2,   0.97301, 2,    6179.46, -120.2,   0.97301, 3,    6179.46,  119.8,   0.97301
"3_WAY_KATAMGAL", 11, 1,    6177.16,   -0.2,   0.97265, 2,    6177.16, -120.2,   0.97265, 3,    6177.16,  119.8,   0.97265
"NIT_HTC", 11, 1,    6176.69,   -0.2,   0.97258, 2,    6176.69, -120.2,   0.97258, 3,    6176.69,  119.8,   0.97258
"KATAMGAL", 11, 1,    6177.04,   -0.2,   0.97263, 2,    6177.04, -120.2,   0.97263, 3,    6177.04,  119.8,   0.97263
"ITI_HTC", 11, 1,    6176.58,   -0.2,   0.97256, 2,    6176.58, -120.2,   0.97256, 3,    6176.58,  119.8,   0.97256
"HOUSING_BOARD_NEW", 11, 1,    6182.18,   -0.2,   0.97344, 2,    6182.18, -120.2,   0.97344, 3,    6182.18,  119.8,   0.97344
"HOUSING_BOARD_I", 11, 1,    6182.08,   -0.2,   0.97343, 2,    6182.08, -120.2,   0.97343, 3,    6182.08,  119.8,   0.97343
"3_WAY_HOUSINGBOARD", 11, 1,    6182.22,   -0.2,   0.97345, 2,    6182.22, -120.2,   0.97345, 3,    6182.22,  119.8,   0.97345
"HAVELI_PANCHAYATBUS1", 0.415, 1,    230.456,   -1.4,   0.96184, 2,    230.456, -121.4,   0.96184, 3,    230.456,  118.6,   0.96184
"SHAPURBUS1", 0.415, 1,    229.109,   -1.3,   0.95621, 2,    229.109, -121.3,   0.95621, 3,    229.109,  118.7,   0.95621
"AMBEGALBUS1", 0.415, 1,    228.604,   -1.3,    0.9541, 2,    228.604, -121.3,    0.9541, 3,    228.604,  118.7,    0.9541
"PATTANTALIBUS1", 0.415, 1,    227.539,   -1.5,   0.94966, 2,    227.539, -121.5,   0.94966, 3,    227.539,  118.5,   0.94966
"PANKAJ_BUILDERSBUS1", 0.415, 1,    228.482,   -1.3,    0.9536, 2,    228.482, -121.3,    0.9536, 3,    228.482,  118.7,    0.9536
"KASHIMATHBUS1", 0.415, 1,    227.962,   -1.3,   0.95142, 2,    227.962, -121.3,   0.95142, 3,    227.962,  118.7,   0.95142
"GVMSBUS1", 0.415, 1,    226.289,   -1.5,   0.94444, 2,    226.289, -121.5,   0.94444, 3,    226.289,  118.5,   0.94444
"SAHAKARIBUS1", 0.415, 1,     227.23,   -1.4,   0.94837, 2,     227.23, -121.4,   0.94837, 3,     227.23,  118.6,   0.94837
"IMABUS1", 0.415, 1,    228.313,   -1.1,   0.95289, 2,    228.313, -121.1,   0.95289, 3,    228.313,  118.9,   0.95289
"SHIVNAGARIBUS1", 0.415, 1,    224.633,   -1.7,   0.93753, 2,    224.633, -121.7,   0.93753, 3,    224.633,  118.3,   0.93753
"GANESH_TEMPLEBUS1", 0.415, 1,    224.486,   -1.7,   0.93692, 2,    224.486, -121.7,   0.93692, 3,    224.486,  118.3,   0.93692
"GTDC_TOURISTBUS1", 0.415, 1,    229.048,   -1.0,   0.95596, 2,    229.048, -121.0,   0.95596, 3,    229.048,  119.0,   0.95596
"PESBUS1", 0.415, 1,    224.343,   -1.8,   0.93632, 2,    224.343, -121.8,   0.93632, 3,    224.343,  118.2,   0.93632
"SUNRISE_CASHEWBUS1", 0.415, 1,    225.066,   -1.6,   0.93934, 2,    225.066, -121.6,   0.93934, 3,    225.066,  118.4,   0.93934
"HOUSING_BOARD_NEWBUS1", 0.415, 1,    227.306,   -1.2,   0.94869, 2,    227.306, -121.2,   0.94869, 3,    227.306,  118.8,   0.94869
"HOUSING_BOARD_IBUS1", 0.415, 1,    226.293,   -1.3,   0.94446, 2,    226.293, -121.3,   0.94446, 3,    226.293,  118.7,   0.94446
"SAAD_PHASE_IIBUS1", 0.415, 1,    227.314,   -1.2,   0.94872, 2,    227.314, -121.2,   0.94872, 3,    227.314,  118.8,   0.94872
"SAAD_IBUS1", 0.415, 1,    226.073,   -1.4,   0.94354, 2,    226.073, -121.4,   0.94354, 3,    226.073,  118.6,   0.94354
"SAAD_IIBUS1", 0.415, 1,    226.066,   -1.4,   0.94351, 2,    226.066, -121.4,   0.94351, 3,    226.066,  118.6,   0.94351
"KATAMGALBUS1", 0.415, 1,    226.031,   -1.4,   0.94337, 2,    226.031, -121.4,   0.94337, 3,    226.031,  118.6,   0.94337
"CONEM_IIBUS1", 0.415, 1,    226.614,   -1.4,    0.9458, 2,    226.614, -121.4,    0.9458, 3,    226.614,  118.6,    0.9458
"CONEM_I_HIGHWAYBUS1", 0.415, 1,    226.623,   -1.4,   0.94584, 2,    226.623, -121.4,   0.94584, 3,    226.623,  118.6,   0.94584
"NIT_HTCBUS1", 0.415, 1,    228.398,   -1.0,   0.95325, 2,    228.398, -121.0,   0.95325, 3,    228.398,  119.0,   0.95325
"ITI_HTCBUS1", 0.415, 1,    226.014,   -1.4,    0.9433, 2,    226.014, -121.4,    0.9433, 3,    226.014,  118.6,    0.9433
"CHIRPUTEM_SCHOOLBUS1", 0.415, 1,    229.204,   -1.3,   0.95661, 2,    229.204, -121.3,   0.95661, 3,    229.204,  118.7,   0.95661
"RTO_OFFICE_NEWBUS1", 0.415, 1,    229.301,   -1.2,   0.95701, 2,    229.301, -121.2,   0.95701, 3,    229.301,  118.8,   0.95701
"3_WAY_AMBEGALBUS1", 0.415, 1,    230.104,   -1.1,   0.96037, 2,    230.104, -121.1,   0.96037, 3,    230.104,  118.9,   0.96037
"MILITARY_GATEBUS1", 0.415, 1,    229.737,   -1.2,   0.95883, 2,    229.737, -121.2,   0.95883, 3,    229.737,  118.8,   0.95883
