Bus, BasekV, Node1, Magnitude1, Angle1, pu1, Node2, Magnitude2, Angle2, pu2, Node3, Magnitude3, Angle3, pu3
"COLONY_SS", 11, 1,    6337.14,   -0.1,   0.99784, 2,    6337.14, -120.1,   0.99784, 3,    6337.14,  119.9,   0.99784
"GOLDEN_NEST", 11, 1,    6301.98,   -0.2,    0.9923, 2,    6301.98, -120.2,    0.9923, 3,    6301.98,  119.8,    0.9923
"RATNADEEP_APT", 11, 1,    6286.87,   -0.2,   0.98992, 2,    6286.87, -120.2,   0.98992, 3,    6286.87,  119.8,   0.98992
"SUREKHA_PARKAR", 11, 1,    6273.83,   -0.2,   0.98787, 2,    6273.83, -120.2,   0.98787, 3,    6273.83,  119.8,   0.98787
"NAGZAR", 11, 1,    6258.57,   -0.2,   0.98547, 2,    6258.57, -120.2,   0.98547, 3,    6258.57,  119.8,   0.98547
"3_WAY_SURAJ_BAR", 11, 1,    6257.61,   -0.2,   0.98532, 2,    6257.61, -120.2,   0.98532, 3,    6257.61,  119.8,   0.98532
"SARTHAK_NEST", 11, 1,    6252.81,   -0.2,   0.98456, 2,    6252.81, -120.2,   0.98456, 3,    6252.81,  119.8,   0.98456
"PROGRESS", 11, 1,    6245.85,   -0.2,   0.98347, 2,    6245.85, -120.2,   0.98347, 3,    6245.85,  119.8,   0.98347
"3_WAY_PROGRESS", 11, 1,    6244.94,   -0.2,   0.98332, 2,    6244.94, -120.2,   0.98332, 3,    6244.94,  119.8,   0.98332
"COMMERTIAL_TAX", 11, 1,    6240.74,   -0.2,   0.98266, 2,    6240.74, -120.2,   0.98266, 3,    6240.74,  119.8,   0.98266
"SADASHIV_TWIN_TOWER", 11, 1,    6237.55,   -0.2,   0.98216, 2,    6237.55, -120.2,   0.98216, 3,    6237.55,  119.8,   0.98216
"VEREKAR_2", 11, 1,    6233.44,   -0.2,   0.98151, 2,    6233.44, -120.2,   0.98151, 3,    6233.44,  119.8,   0.98151
"3_WAY_VEREKAR_2", 11, 1,     6232.6,   -0.2,   0.98138, 2,     6232.6, -120.2,   0.98138, 3,     6232.6,  119.8,   0.98138
"BANDODKAR", 11, 1,    6224.76,   -0.3,   0.98015, 2,    6224.76, -120.3,   0.98015, 3,    6224.76,  119.7,   0.98015
"PANDITWADA", 11, 1,    6232.19,   -0.2,   0.98132, 2,    6232.19, -120.2,   0.98132, 3,    6232.19,  119.8,   0.98132
"3_WAY_BAGAYTDAR", 11, 1,    6223.96,   -0.3,   0.98002, 2,    6223.96, -120.3,   0.98002, 3,    6223.96,  119.7,   0.98002
"KAZIWADA", 11, 1,    6221.26,   -0.3,   0.97959, 2,    6221.26, -120.3,   0.97959, 3,    6221.26,  119.7,   0.97959
"TWIN_TOWER", 11, 1,     6215.4,   -0.3,   0.97867, 2,     6215.4, -120.3,   0.97867, 3,     6215.4,  119.7,   0.97867
"HOTEL_MENINO", 11, 1,    6209.32,   -0.3,   0.97771, 2,    6209.32, -120.3,   0.97771, 3,    6209.32,  119.7,   0.97771
"3W_CANARA", 11, 1,    6204.19,   -0.3,   0.97691, 2,    6204.19, -120.3,   0.97691, 3,    6204.19,  119.7,   0.97691
"3_WAY_BHOSLE_1", 11, 1,    6200.82,   -0.3,   0.97638, 2,    6200.82, -120.3,   0.97638, 3,    6200.82,  119.7,   0.97638
"CANARA_BANK", 11, 1,    6204.14,   -0.3,    0.9769, 2,    6204.14, -120.3,    0.9769, 3,    6204.14,  119.7,    0.9769
"KCA", 11, 1,    6203.98,   -0.3,   0.97687, 2,    6203.98, -120.3,   0.97687, 3,    6203.98,  119.7,   0.97687
"2W_GANGANATH", 11, 1,    6203.98,   -0.3,   0.97687, 2,    6203.98, -120.3,   0.97687, 3,    6203.98,  119.7,   0.97687
"3_WAY_BHOSLE_2", 11, 1,     6200.1,   -0.3,   0.97626, 2,     6200.1, -120.3,   0.97626, 3,     6200.1,  119.7,   0.97626
"SUPER_MARKET", 11, 1,    6200.09,   -0.3,   0.97626, 2,    6200.09, -120.3,   0.97626, 3,    6200.09,  119.7,   0.97626
"3_WAY_BAZAR", 11, 1,    6200.09,   -0.3,   0.97626, 2,    6200.09, -120.3,   0.97626, 3,    6200.09,  119.7,   0.97626
"BHOSLE", 11, 1,     6199.7,   -0.3,    0.9762, 2,     6199.7, -120.3,    0.9762, 3,     6199.7,  119.7,    0.9762
"KANIR_CONSTRUCTION_HTC", 11, 1,    6198.28,   -0.3,   0.97598, 2,    6198.28, -120.3,   0.97598, 3,    6198.28,  119.7,   0.97598
"KANIR_CONSTRUCTION", 11, 1,    6196.76,   -0.3,   0.97574, 2,    6196.76, -120.3,   0.97574, 3,    6196.76,  119.7,   0.97574
"BSNL_INTERNAL", 11, 1,    6195.41,   -0.3,   0.97552, 2,    6195.41, -120.3,   0.97552, 3,    6195.41,  119.7,   0.97552
"KAMAT_AVR_REALTORS", 11, 1,    6194.78,   -0.3,   0.97542, 2,    6194.78, -120.3,   0.97542, 3,    6194.78,  119.7,   0.97542
"COELO", 11, 1,    6194.38,   -0.3,   0.97536, 2,    6194.38, -120.3,   0.97536, 3,    6194.38,  119.7,   0.97536
"DK_ARCADE", 11, 1,    6194.04,   -0.3,   0.97531, 2,    6194.04, -120.3,   0.97531, 3,    6194.04,  119.7,   0.97531
"GOA_STATE_BANK", 11, 1,    6191.49,   -0.3,   0.97491, 2,    6191.49, -120.3,   0.97491, 3,    6191.49,  119.7,   0.97491
"3_WAY_MUNCIPALITY", 11, 1,    6189.41,   -0.3,   0.97458, 2,    6189.41, -120.3,   0.97458, 3,    6189.41,  119.7,   0.97458
"3_WAY_TISK", 11, 1,    6187.34,   -0.3,   0.97425, 2,    6187.34, -120.3,   0.97425, 3,    6187.34,  119.7,   0.97425
"3_WAY_MAMLATDAR", 11, 1,    6184.38,   -0.3,   0.97379, 2,    6184.38, -120.3,   0.97379, 3,    6184.38,  119.7,   0.97379
"MAMLADTDAR", 11, 1,    6182.91,   -0.3,   0.97356, 2,    6182.91, -120.3,   0.97356, 3,    6182.91,  119.7,   0.97356
"TARANGAN_I", 11, 1,    6180.17,   -0.3,   0.97312, 2,    6180.17, -120.3,   0.97312, 3,    6180.17,  119.7,   0.97312
"RAJMUDRA_I", 11, 1,    6177.84,   -0.3,   0.97276, 2,    6177.84, -120.3,   0.97276, 3,    6177.84,  119.7,   0.97276
"PWD", 11, 1,    6176.62,   -0.3,   0.97257, 2,    6176.62, -120.3,   0.97257, 3,    6176.62,  119.7,   0.97257
"RAJMUDRA_II", 11, 1,    6175.05,   -0.3,   0.97232, 2,    6175.05, -120.3,   0.97232, 3,    6175.05,  119.7,   0.97232
"RAJ_DURGA", 11, 1,    6174.92,   -0.3,    0.9723, 2,    6174.92, -120.3,    0.9723, 3,    6174.92,  119.7,    0.9723
"SUMIT_PLUMERIA", 11, 1,    6174.44,   -0.3,   0.97222, 2,    6174.44, -120.3,   0.97222, 3,    6174.44,  119.7,   0.97222
"3_WAY_DAAG", 11, 1,     6173.9,   -0.3,   0.97214, 2,     6173.9, -120.3,   0.97214, 3,     6173.9,  119.7,   0.97214
"DAAG", 11, 1,    6173.36,   -0.3,   0.97205, 2,    6173.36, -120.3,   0.97205, 3,    6173.36,  119.7,   0.97205
"4_WAY_MENINO", 11, 1,    6196.12,   -0.3,   0.97564, 2,    6196.12, -120.3,   0.97564, 3,    6196.12,  119.7,   0.97564
"SUMIT_SHIVAM", 11, 1,    6195.68,   -0.3,   0.97557, 2,    6195.68, -120.3,   0.97557, 3,    6195.68,  119.7,   0.97557
"KALPANA", 11, 1,    6195.28,   -0.3,    0.9755, 2,    6195.28, -120.3,    0.9755, 3,    6195.28,  119.7,    0.9755
"2_WAY_SHANTINAGAR", 11, 1,    6195.28,   -0.3,    0.9755, 2,    6195.28, -120.3,    0.9755, 3,    6195.28,  119.7,    0.9755
"POLICE_STATION", 11, 1,    6192.46,   -0.3,   0.97506, 2,    6192.46, -120.3,   0.97506, 3,    6192.46,  119.7,   0.97506
"3_WAY_APOLLO", 11, 1,    6190.52,   -0.3,   0.97475, 2,    6190.52, -120.3,   0.97475, 3,    6190.52,  119.7,   0.97475
"RAJDEEP_GALARIA_I", 11, 1,    6189.58,   -0.3,   0.97461, 2,    6189.58, -120.3,   0.97461, 3,    6189.58,  119.7,   0.97461
"RAJDEEP_GALARIA_II", 11, 1,    6189.53,   -0.3,    0.9746, 2,    6189.53, -120.3,    0.9746, 3,    6189.53,  119.7,    0.9746
"2_WAY_BAZAR", 11, 1,    6189.53,   -0.3,    0.9746, 2,    6189.53, -120.3,    0.9746, 3,    6189.53,  119.7,    0.9746
"AIESHA", 11, 1,     6189.2,   -0.3,   0.97455, 2,     6189.2, -120.3,   0.97455, 3,     6189.2,  119.7,   0.97455
"GOLDEN_NESTBUS", 0.415, 1,    231.024,   -1.2,    0.9642, 2,    231.024, -121.2,    0.9642, 3,    231.024,  118.8,    0.9642
"SUREKHA_PARKARBUS", 0.415, 1,    227.568,   -1.6,   0.94978, 2,    227.568, -121.6,   0.94978, 3,    227.568,  118.4,   0.94978
"NAGZARBUS", 0.415, 1,    227.017,   -1.6,   0.94748, 2,    227.017, -121.6,   0.94748, 3,    227.017,  118.4,   0.94748
"SARTHAK_NESTBUS", 0.415, 1,    229.112,   -1.2,   0.95623, 2,    229.112, -121.2,   0.95623, 3,    229.112,  118.8,   0.95623
"PROGRESSBUS", 0.415, 1,    226.558,   -1.6,   0.94557, 2,    226.558, -121.6,   0.94557, 3,    226.558,  118.4,   0.94557
"COMMERTIAL_TAXBUS", 0.415, 1,    226.373,   -1.6,   0.94479, 2,    226.373, -121.6,   0.94479, 3,    226.373,  118.4,   0.94479
"PANDITWADABUS", 0.415, 1,     228.31,   -1.3,   0.95288, 2,     228.31, -121.3,   0.95288, 3,     228.31,  118.7,   0.95288
"VEREKAR_2_BUS", 0.415, 1,    227.207,   -1.4,   0.94827, 2,    227.207, -121.4,   0.94827, 3,    227.207,  118.6,   0.94827
"BANDODKARBUS", 0.415, 1,    226.892,   -1.5,   0.94696, 2,    226.892, -121.5,   0.94696, 3,    226.892,  118.5,   0.94696
"KAZIWADABUS", 0.415, 1,    225.669,   -1.6,   0.94186, 2,    225.669, -121.6,   0.94186, 3,    225.669,  118.4,   0.94186
"SADASHIV_TWIN_TOWERBUS", 0.415, 1,    228.519,   -1.3,   0.95375, 2,    228.519, -121.3,   0.95375, 3,    228.519,  118.7,   0.95375
"CANARA_BANKBUS", 0.415, 1,    225.051,   -1.6,   0.93928, 2,    225.051, -121.6,   0.93928, 3,    225.051,  118.4,   0.93928
"KCA_BUS", 0.415, 1,    227.238,   -1.3,    0.9484, 2,    227.238, -121.3,    0.9484, 3,    227.238,  118.7,    0.9484
"BHOSLEBUS", 0.415, 1,    224.891,   -1.6,   0.93861, 2,    224.891, -121.6,   0.93861, 3,    224.891,  118.4,   0.93861
"SUPER_MARKETBUS", 0.415, 1,    227.096,   -1.3,   0.94781, 2,    227.096, -121.3,   0.94781, 3,    227.096,  118.7,   0.94781
"DK_ARCADEBUS", 0.415, 1,    224.686,   -1.6,   0.93775, 2,    224.686, -121.6,   0.93775, 3,    224.686,  118.4,   0.93775
"COELOBUS", 0.415, 1,    224.699,   -1.6,   0.93781, 2,    224.699, -121.6,   0.93781, 3,    224.699,  118.4,   0.93781
"KAMAT_AVR_REALTORSBUS", 0.415, 1,    228.033,   -1.1,   0.95172, 2,    228.033, -121.1,   0.95172, 3,    228.033,  118.9,   0.95172
"BSNL_INTERNALBUS", 0.415, 1,    228.057,   -1.1,   0.95182, 2,    228.057, -121.1,   0.95182, 3,    228.057,  118.9,   0.95182
"KANIR_CONSTRUCTIONBUS", 0.415, 1,    228.109,   -1.1,   0.95204, 2,    228.109, -121.1,   0.95204, 3,    228.109,  118.9,   0.95204
"SUMIT_SHIVAMBUS", 0.415, 1,    225.835,   -1.5,   0.94255, 2,    225.835, -121.5,   0.94255, 3,    225.835,  118.5,   0.94255
"KALPANABUS", 0.415, 1,    224.731,   -1.6,   0.93794, 2,    224.731, -121.6,   0.93794, 3,    224.731,  118.4,   0.93794
"POLICE_STATIONBUS", 0.415, 1,    224.629,   -1.7,   0.93752, 2,    224.629, -121.7,   0.93752, 3,    224.629,  118.3,   0.93752
"GOA_STATE_BANKBUS", 0.415, 1,    224.594,   -1.7,   0.93737, 2,    224.594, -121.7,   0.93737, 3,    224.594,  118.3,   0.93737
"RAJDEEP_GALARIA_I_BUS", 0.415, 1,    225.613,   -1.5,   0.94162, 2,    225.613, -121.5,   0.94162, 3,    225.613,  118.5,   0.94162
"RAJDEEP_GALARIA_II_BUS", 0.415, 1,    225.612,   -1.5,   0.94162, 2,    225.612, -121.5,   0.94162, 3,    225.612,  118.5,   0.94162
"AIESHABUS", 0.415, 1,    224.511,   -1.7,   0.93702, 2,    224.511, -121.7,   0.93702, 3,    224.511,  118.3,   0.93702
"MAMLADTDARBUS", 0.415, 1,    224.284,   -1.7,   0.93608, 2,    224.284, -121.7,   0.93608, 3,    224.284,  118.3,   0.93608
"TARANGAN_I_BUS", 0.415, 1,    226.369,   -1.3,   0.94478, 2,    226.369, -121.3,   0.94478, 3,    226.369,  118.7,   0.94478
"PWDBUS", 0.415, 1,    226.239,   -1.3,   0.94423, 2,    226.239, -121.3,   0.94423, 3,    226.239,  118.7,   0.94423
"RAJMUDRA_I_BUS", 0.415, 1,    224.101,   -1.7,   0.93531, 2,    224.101, -121.7,   0.93531, 3,    224.101,  118.3,   0.93531
"RAJMUDRA_II_BUS", 0.415, 1,    226.182,   -1.3,     0.944, 2,    226.182, -121.3,     0.944, 3,    226.182,  118.7,     0.944
"RAJ_DURGABUS", 0.415, 1,    226.177,   -1.3,   0.94398, 2,    226.177, -121.3,   0.94398, 3,    226.177,  118.7,   0.94398
"SUMIT_PLUMERIABUS", 0.415, 1,    227.265,   -1.2,   0.94851, 2,    227.265, -121.2,   0.94851, 3,    227.265,  118.8,   0.94851
"DAAGBUS", 0.415, 1,    223.939,   -1.7,   0.93464, 2,    223.939, -121.7,   0.93464, 3,    223.939,  118.3,   0.93464
"KANIR_CONSTRUCTIONHTCBUS", 0.415, 1,    233.844,   -0.3,   0.97598, 2,    233.844, -120.3,   0.97598, 3,    233.844,  119.7,   0.97598
"RATNADEEP_APTBUS", 0.415, 1,    228.076,   -1.6,    0.9519, 2,    228.076, -121.6,    0.9519, 3,    228.076,  118.4,    0.9519
"TWIN_TOWERBUS", 0.415, 1,    227.657,   -1.3,   0.95015, 2,    227.657, -121.3,   0.95015, 3,    227.657,  118.7,   0.95015
